"Freq [GHz]","Phase [deg]","Distance [mm]","Mag_H [A_per_meter]","Mag_H_1 [A_per_meter]","Mag_H_2 [A_per_meter]","Mag_H_3 [A_per_meter]","Mag_H_4 [A_per_meter]","Mag_H_5 [A_per_meter]","Mag_H_6 [A_per_meter]","Mag_H_7 [A_per_meter]","Mag_H_8 [A_per_meter]","Mag_H_9 [A_per_meter]","Mag_H_10 [A_per_meter]","Mag_H_11 [A_per_meter]"
0.001,0,0,0.00881813584211337,0.00833057405089121,0.00887390408062107,0.00837287989704877,0.00881813584211337,0.00266760693240347,0.00887390408062107,0.00265356941372041,0.00266760693240347,0.00274224410608113,0.00833057405089121,0.00881813584211337
0.001,0,0.600004,0.00868924450554703,0.00819849048287251,0.00875254750616806,0.00823866674560671,0.00887861515470802,0.00267404169501613,0.00890075516288701,0.00265983362198753,0.0026705013945593,0.00274727967380778,0.00836249059052876,0.00887388332527337
0.001,0,1.200008,0.00856193024153909,0.00806800557876787,0.00863187197594399,0.00810631399302849,0.00893939522766574,0.00268039555693504,0.00892770200037792,0.00266662841185215,0.0026731743536243,0.00275227056954028,0.00839438837987424,0.00890897873566291
0.001,0,1.800012,0.00843619238214404,0.0079391191188052,0.00851187812308858,0.00800768698215461,0.00900045748158672,0.00268666871399666,0.00895474341633448,0.00267340227573071,0.00268293230695436,0.00275721579801429,0.00842626509951357,0.00892266636671075
0.001,0,2.400016,0.00831203023809405,0.00781183088575941,0.00839256661511573,0.00792380706226851,0.00904614408432955,0.00269286139850649,0.00898187829301062,0.00268015535893931,0.0026953025040918,0.00276211438334709,0.00845811856984826,0.00893591247455714
0.001,0,3.00002,0.00818944309879906,0.0076861406649523,0.00827393815391358,0.00784060764268769,0.00908768772597423,0.00269897387923894,0.00900910557167365,0.00268688781247188,0.00270761858907776,0.00276696536903758,0.00848994675109546,0.00894871686301483
0.001,0,3.600024,0.00806843023234678,0.00756204824425264,0.00815599347574452,0.00775808909164656,0.00912922483171007,0.0027050064614374,0.00903642425260423,0.00269359979300014,0.00271988261761456,0.0027717678179663,0.00852174774328798,0.00896107965937285
0.001,0,4.200028,0.00794899088550257,0.00743955341407613,0.00803873335124518,0.00767625181811334,0.00917073731060685,0.00271095948681424,0.00906383339509634,0.00270029146287363,0.00273209666913069,0.00277652081239543,0.00855351978627418,0.00897300131439658
0.001,0,4.800032,0.0078311242837096,0.00731865596738544,0.00792215858542636,0.00759509627179013,0.00921220750970076,0.00271683333355074,0.00909133211745734,0.00270696299011968,0.00274426284678077,0.00278122345396879,0.00858526125971816,0.00898448260232768
0.001,0,5.400036,0.00771482963108873,0.00719935569969016,0.00780627001767312,0.00751462294311295,0.00925361821399454,0.00272262841629719,0.00911891959700788,0.00271361454844347,0.00275638327744558,0.00278587486371181,0.00861235678872976,0.00899552462088418
0.001,0,6.00004,0.00760010611043856,0.00708165240904686,0.00769106852174476,0.00743483236325157,0.00928861063052175,0.00272834518617281,0.00914659507008198,0.00272024631722794,0.00276846011173205,0.00279047418203156,0.00863566392147272,0.00900612879126036
0.001,0,6.600044,0.00748695288323547,0.00696554589605901,0.00757655500577481,0.00735572510410974,0.00929292011221223,0.0027339841307658,0.00917435783202702,0.00272685848153388,0.00278049552397328,0.00279502056871675,0.00865898622426621,0.00901629685812687
0.001,0,7.200048,0.00737536908963352,0.00685103596387708,0.00746273041227102,0.00727730177832496,0.00929672414180975,0.00273954577413331,0.0092022072372037,0.00273411511661224,0.0027924917122285,0.00279889732314839,0.00868232472129528,0.00902603088963064
0.001,0,7.800052,0.00726535384846452,0.00673812241819842,0.00734959571811533,0.00718975238313903,0.00930002223922227,0.00274503067680144,0.00923014269898606,0.00274153590900021,0.00280445089828311,0.00280024360589474,0.00870568067056799,0.00903533327739491
0.001,0,8.400056,0.00715690625723804,0.00662680506726736,0.00723441686345632,0.00709243577930329,0.00930281418389111,0.00275043943576529,0.00924738077529638,0.00274895942982135,0.00281637532764864,0.0028015264606199,0.0087290555639153,0.00904420673651927
0.001,0,9.00006,0.00705002539214136,0.0065170837218752,0.00711595435149881,0.0069957499888121,0.0093051000147909,0.00275577268448888,0.00924857912505073,0.00275638622066167,0.00282826726956278,0.00280274584762087,0.00875245112699114,0.00905265430557964
0.001,0,9.600064,0.00694471030803951,0.00641006667711412,0.00699834424315511,0.00689969423346737,0.00930688003042971,0.00276103109290521,0.00924961052073727,0.00276381682872677,0.0028401290169894,0.00280390174446424,0.0087758693192724,0.00906356434513204
0.001,0,10.200068,0.00684096003847522,0.00632670519354948,0.00688158758799028,0.00681521115062083,0.00930815478884897,0.00276621536741623,0.00925047401147406,0.00277125180684176,0.00285196288661848,0.00280499414598617,0.00879931233405892,0.00907916095051338
0.001,0,10.800072,0.006738773595669,0.00624399343008929,0.00676568547155778,0.00673586895194985,0.00930862361374217,0.00277132625089286,0.00925116876499837,0.00277869171345134,0.00286377121886618,0.0028060230642924,0.00882406894469083,0.00909452477259354
0.001,0,11.400076,0.00663814997051908,0.00616193523480154,0.00665063901539938,0.0066570883223093,0.00929590599217459,0.0027763543178479,0.00925169406766683,0.00278613711261973,0.00287555637787481,0.00280698852875825,0.00885002553343585,0.00910965218877015
0.001,0,12.00008,0.00653908813260143,0.0060805345391772,0.00653644937704525,0.00657886844180486,0.00928277396517272,0.00278133492968553,0.00925204932445528,0.00279358857403073,0.00288732075151282,0.00280789058602859,0.00887600320164311,0.00912453972780811
0.001,0,12.600084,0.00644158703016971,0.00599979535813031,0.00642311775001392,0.00650493142591574,0.00926922766997264,0.00278628614546672,0.00925223405895895,0.00280104667298767,0.00289906675137482,0.00280872930001789,0.00890200623274935,0.00913918406983946
0.001,0,13.200088,0.0063456455901554,0.00591972178999796,0.00632540583965558,0.0064325525690257,0.00925526748272588,0.00279120810812455,0.0092522479133923,0.00280851199041348,0.00290800386898162,0.0028095047519102,0.00892803898306807,0.00915358204636344
0.001,0,13.800092,0.00625126271816764,0.00584031801654025,0.00624843579118607,0.00636075959150843,0.00924089401849925,0.00279610099076421,0.0092520906485891,0.00281598511285056,0.00290727304845571,0.00281021704015913,0.00895410588178977,0.00916773064024649
0.001,0,14.400096,0.00616583921034423,0.00576158830294036,0.00617437091122994,0.0062895525150312,0.00922610813127497,0.00280096499666298,0.00925176214400245,0.00282346663246094,0.00290648110656679,0.00281086628048786,0.00898021143098175,0.00918162698572221
0.001,0,15.0001,0.00609045779288942,0.00568353699780449,0.00610194124035574,0.00621893135197352,0.00921091091395067,0.00280580035927022,0.00925126239770467,0.00283095714702618,0.00290562912640599,0.00281145260588917,0.00900636020558823,0.00919526836839137
0.001,0,15.600104,0.0060166191341705,0.0056061685331619,0.00603005839268178,0.00614889610542728,0.00919530369833928,0.00281060734220741,0.00925059152638746,0.00283845725994736,0.00290471820998177,0.00281197616662539,0.00903255685343026,0.00920865222522197
0.001,0,16.200108,0.00594432365320021,0.00552948742446486,0.00595872184626053,0.0060794467691966,0.00917928805516917,0.0028153862392681,0.00924974976536179,0.00284596758024516,0.00290374947821996,0.00281271317561293,0.00905880609520583,0.00922177614454917
0.001,0,16.800112,0.00587357178001647,0.00545349827058873,0.00588793108119849,0.00601058332779796,0.00916286579408405,0.00282013737441794,0.00924873746855787,0.00285348872255977,0.00290272407096376,0.00281578227647532,0.0090851127244898,0.00923463786607529
0.001,0,17.400116,0.00580291247559466,0.00539501564690527,0.00581768557965633,0.00594230575646009,0.00914603896364303,0.00282486110179469,0.00924755510852528,0.00286102130715097,0.00290164314697375,0.00281896367889537,0.00911148160773383,0.00924723528086989
0.001,0,18.00012,0.00572459301527687,0.0053368581174019,0.00574798482584886,0.00587461402112407,0.00912880985132058,0.00282947295556053,0.00924620327643284,0.00286856595989809,0.00290050788392783,0.00282225899474433,0.00913791768426657,0.00925956643136966
0.001,0,18.600124,0.00564795032688179,0.0052788743921356,0.00567882830604497,0.00580750807844323,0.00911118098350649,0.00283292013738678,0.00924468268206874,0.00287612331229997,0.0028993194784213,0.00282263714944309,0.00916442596629348,0.0092716295113785
0.001,0,19.200128,0.005572984913594,0.00522105996514288,0.00561021550856771,0.00574098787578324,0.00909315512550607,0.00283633954077398,0.00924299415384036,0.00288369400147506,0.0028980791459668,0.00282147102653884,0.00919101153889691,0.0092834228660675
0.001,0,19.800132,0.00548996786786935,0.00516341033124138,0.00554214592379423,0.00567505335122206,0.00907473528153985,0.00283973166035663,0.00924113863877446,0.00289127867016132,0.00289678812099438,0.00282029582788078,0.00921767956003611,0.00929494499197492
0.001,0,20.400136,0.00540626612961748,0.00510592098602981,0.00547461904415583,0.00560970443354994,0.00905592469474379,0.00284309700490212,0.00923911720251707,0.00289887796671628,0.00289544765685137,0.00281911179571785,0.00924443526054721,0.00930619453700622
0.001,0,21.00014,0.00532272700364089,0.00504858742588801,0.00540763436413792,0.00554494104226945,0.00903672684716925,0.00284643609731081,0.0092369310293335,0.00290649254511703,0.00289405902580255,0.00281791918602912,0.00927128394414315,0.00931717030043402
0.001,0,21.600144,0.00528088116735302,0.00499140514797694,0.00534119138028007,0.00548076308759546,0.00901714545978294,0.00284964339635253,0.00923458142210837,0.0029141230649602,0.00289262351903,0.00281671826852379,0.00929823098741388,0.00932209335038685
0.001,0,22.200148,0.00524012097274575,0.00493436965023865,0.0052752895911759,0.00541717047045511,0.0090054939369198,0.00285277679134611,0.00923206980234558,0.00292177019146197,0.0028911424466332,0.00281550932664123,0.00932528183982611,0.00932308487137803
0.001,0,22.800152,0.00519958831279544,0.00488223819957358,0.00520992849747325,0.00535416308248788,0.00900548284726187,0.00285591138196106,0.00922939771016835,0.00292943459545809,0.00288961713762898,0.00281649754966866,0.00932279570236864,0.00932397961709534
0.001,0,23.400156,0.00515928315497478,0.00483560350587824,0.00514510760187402,0.00529174080604552,0.00900535973407775,0.00285904730742936,0.00922656680431921,0.00293711695340385,0.00288804893995153,0.00281993296709581,0.00930834539379401,0.00932969362051423
0.001,0,24.00016,0.00511372782349822,0.00478942175958114,0.00508082640913425,0.00522990351419212,0.00900512404123226,0.00286218472002714,0.00922357886215993,0.00294481794737409,0.0028864392204524,0.00282363649244918,0.00929294179716992,0.00934291056385676
0.001,0,24.600164,0.00506049446993706,0.00474369341823574,0.00501708442606412,0.00516865107070402,0.00900477529505452,0.00286405114496716,0.0092204357796716,0.00295253826506322,0.00288478936490053,0.00282760705825852,0.00927660095474122,0.00935667288606287
0.001,0,25.200168,0.00500761396647195,0.00469841897918581,0.00495388116152791,0.00510798333006991,0.00900571440334177,0.00286301415932158,0.00921713957145463,0.00296027859978517,0.00288310077798219,0.00283184358293281,0.00925933955065972,0.00937094982111198
0.001,0,25.800172,0.00495508642149718,0.00465359897956556,0.00489121612644406,0.00504790013749073,0.0090065372527979,0.00286196348645818,0.0092136923707287,0.00296803965047346,0.00288137488330103,0.00283634497076032,0.00924117491098445,0.00938571102157321
0.001,0,26.400176,0.00490291194781022,0.00460923399629953,0.00482908883378512,0.00498840132887979,0.0090071042665733,0.00286089720111791,0.00921009642933278,0.00296613667668828,0.00287961312337806,0.00284111011190856,0.00922212500368141,0.00940092655860535
0.001,0,27.00018,0.00485109066261178,0.00456532464610264,0.00476749879857775,0.00492948673086263,0.00900741676814008,0.00285981340125699,0.00920635411772517,0.00296141158917758,0.00287781695965166,0.0028461378824243,0.00920220843862373,0.00941656692195693
0.001,0,27.600184,0.00479962268750582,0.00452187158548019,0.00470644553790275,0.00487115616077715,0.00900747621116166,0.00285871020804699,0.00920246792498342,0.00295670877867193,0.00287598787247757,0.00285142714423358,0.00918144446759166,0.00943260301996624
0.001,0,28.200188,0.00474850814849948,0.00447887551072783,0.00464592857089506,0.00481340942667349,0.00900728417949275,0.00285758576587478,0.0091984404588044,0.00295202820762975,0.00287398635626171,0.0028569767451417,0.00915985298427244,0.00944900617956116
0.001,0,28.800192,0.00469774717600316,0.00443633715793161,0.00458594741874372,0.00475624632731416,0.0090068423871793,0.00285643824234252,0.00919427444550427,0.00294736984223612,0.00287118078291919,0.00286278551883321,0.00913745452426047,0.00946574814625938
0.001,0,29.400196,0.00464733990483049,0.00439425730296792,0.0045265016046919,0.00469966665217391,0.00900615267845858,0.0028552658282677,0.00918997273001852,0.00294213557607207,0.00286853474586863,0.00286885228487193,0.0091142702650572,0.00948280108416824
0.001,0,30.0002,0.00459728647419829,0.00435263676150356,0.00446759065403693,0.00464367018143981,0.00900521702775919,0.0028547857149346,0.00918553827590188,0.00293650072685957,0.00286604838759779,0.00287517584870095,0.00909032202607115,0.00950013757598485
0.001,0,30.600204,0.00454758702772664,0.00431147638899566,0.0044092140941302,0.00458825668601127,0.00900403753970089,0.00285432046104456,0.0091809741653284,0.00293092133182229,0.00286372183244275,0.00288175500164259,0.00907086183223297,0.00951773062299595
0.001,0,31.200208,0.00449824171343883,0.00427077708069176,0.00435137145437729,0.00453342592749994,0.00900261644909484,0.00285384043334313,0.00917628359909143,0.0029253975319993,0.00286155518658783,0.00288858852089845,0.0090558876509889,0.00953555364507808
0.001,0,31.800212,0.00444925068376137,0.00423053977162974,0.00429406226623787,0.00447917765822981,0.00900095612094343,0.00285334520557575,0.00917146989660361,0.00291992946613332,0.00285954853806565,0.0028956751695494,0.00904449315090573,0.00955358048069741
0.001,0,32.400216,0.00440061409552401,0.00419076543663786,0.00423728606322575,0.00442551162123717,0.00900454532073544,0.00285283436137037,0.00916653649589686,0.00291451727067073,0.00285770195675705,0.00290301369655555,0.00903338816017472,0.00957178538690989
0.001,0,33.00022,0.00435233210995971,0.00415145509033478,0.00418104238090886,0.00437242755027059,0.00902244699166175,0.00285230749423744,0.00916245288069531,0.00290916107976154,0.00285601549439121,0.00291060283675629,0.0090223432886058,0.00959014303936111
0.001,0,33.600224,0.00430440489270468,0.00411260978712948,0.00412533075690927,0.00431992516979096,0.00903999013551353,0.0028519223678064,0.00917182028926074,0.00290386102525943,0.00285448918454551,0.00291844131087024,0.00901135119086167,0.00960862853228642
0.001,0,34.200228,0.00425683261379832,0.0040733824804864,0.00407015073090314,0.00426800419497147,0.00905716818299124,0.0028515906236817,0.00918094898382162,0.0028986172367217,0.00285312304264565,0.00292652782549532,0.00900040465930432,0.00962721737851086
0.001,0,34.800232,0.00420961544768327,0.00403392009107194,0.00401550184462078,0.0042166643316976,0.00907397482567824,0.00285116969156539,0.00918984522674514,0.00289342984140932,0.00285191706596558,0.00293486107310869,0.00898949662399493,0.00964588550944919
0.001,0,35.400236,0.00416275357320542,0.00399482950255947,0.00396138364184663,0.00416590527656712,0.00909040401604068,0.00285065836273681,0.00919851547962433,0.00288829896428691,0.00285087123362752,0.00293517128645878,0.00897862015269402,0.00966460927510586
0.001,0,36.00024,0.00411624717361385,0.00395611157224845,0.00390779566841926,0.00411572671689014,0.00910644996742759,0.00285005546289285,0.00920696640327801,0.00288322472802272,0.00284998550660198,0.00293069222744837,0.00896776845086134,0.00968336544407504
0.001,0,36.600244,0.00407009643656089,0.00391776722601123,0.00385473747223135,0.00406612833068904,0.00912210715407079,0.00284935985214797,0.00921520485775073,0.00287820725298866,0.00284925982770771,0.00292617206330675,0.00895693486165589,0.00970213120354064
0.001,0,37.200248,0.00402430155410207,0.00387979745829307,0.0038022086032297,0.00401710978669851,0.00913737031108503,0.00284857042503419,0.00922323790231281,0.00287324665726028,0.00284869412161177,0.00292161100989764,0.00894611286593603,0.00971150178541708
0.001,0,37.800252,0.00397886272269618,0.00384220333211215,0.00376307246086923,0.00396867074436554,0.00915223443446782,0.00284768611050107,0.00923107279546041,0.0028683430566168,0.00284828829482944,0.00291700930630898,0.00893529608225926,0.00968246309287449
0.001,0,38.400256,0.0039337801432052,0.00380498597905957,0.00372934422119491,0.00392081085384944,0.00916669478109957,0.00284670587191578,0.00923871699491547,0.00286349656454106,0.00284804223572431,0.00291236721485294,0.00892447826688244,0.00965329676283841
0.001,0,39.00026,0.00388905402089435,0.00376865917073042,0.00369586334532729,0.00387352975602178,0.0091807468687435,0.00284523846946588,0.00924617815762568,0.00285870729221957,0.00284795581450823,0.00290768502106593,0.00891365331376169,0.0096240236673684
0.001,0,39.600264,0.00384468456543209,0.00373386460316991,0.00366262947547559,0.00382682708246646,0.00919438647604568,0.00284276297239914,0.00925346413976453,0.00285372112762627,0.00284802888324132,0.00290296303370861,0.00890281525455232,0.00959466515921498
0.001,0,40.200268,0.00380067199089009,0.00369950944639975,0.00362964225552756,0.00378070245547967,0.00920760964253503,0.00284023546417667,0.0092605829967313,0.00284767085822893,0.00284826127583196,0.00289820158476587,0.008891958258609,0.00956524307181986
0.001,0,40.800272,0.00375701651574323,0.00366559363588019,0.00359690133104939,0.00373515548806992,0.00922041266862332,0.00283765592128508,0.00926754298315103,0.00284160623767577,0.002846749470527,0.00289340102944681,0.00888107663298563,0.00953577971931573
0.001,0,41.400276,0.00371371836286965,0.00363211708840396,0.00356440634928577,0.00368892962682952,0.00923279211560516,0.00283502433539165,0.00927435255287458,0.00283552942559336,0.00284081481891904,0.00288856174618481,0.00887016482243538,0.00950629789652641
0.001,0,42.00028,0.00367077775955071,0.00359907970209632,0.00353215695915989,0.00364086656627355,0.00924474480565797,0.0028323407133443,0.00928102035897852,0.00282944265143768,0.00283487989401575,0.00288368413663743,0.00885921740941069,0.0094768208789667
0.001,0,42.600284,0.00362819493747094,0.00356263790909428,0.00350015281127337,0.00359344349309444,0.00925626782184208,0.00282960507717163,0.00928755525376533,0.00282334821449415,0.00282894401059462,0.00287876862568651,0.00884822911406325,0.00944737242284258
0.001,0,43.200288,0.00358597013271818,0.00352517616708964,0.00346839355790638,0.00354666026869696,0.00926735850810059,0.00282681746408289,0.00929396628876313,0.00281724848387755,0.00282300649074829,0.00287381566143809,0.00883719479424405,0.00941797676505104
0.001,0,43.800292,0.00354410358578344,0.00348835148915695,0.00343687885301754,0.0035005167482215,0.0092780144692595,0.00282397792646798,0.00926385809130826,0.00281114589853211,0.00281706666388457,0.00286882571522249,0.00882610944550333,0.00938865862318011
0.001,0,44.400296,0.00350259554156096,0.00345216441449797,0.00340560835224392,0.00345501278054398,0.00928823357102761,0.00282108653189749,0.00921764676416076,0.00280504296723145,0.00281112386672639,0.00286361943483806,0.00881496820109058,0.00935944319550892
0.001,0,45.0003,0.00346156917216113,0.00341661547861365,0.00337458171290114,0.00341014820827587,0.00929801393999659,0.00281814336312262,0.00917105257160639,0.00279894226857858,0.00280517744331184,0.00285471635273807,0.00880376633195459,0.0093303561610077
